<Qucs Dataset 24.4.0>
<indep frequency 200>
1.000000000000e+01
6.020100502513e+01
1.104020100503e+02
1.606030150754e+02
2.108040201005e+02
2.610050251256e+02
3.112060301508e+02
3.614070351759e+02
4.116080402010e+02
4.618090452261e+02
5.120100502513e+02
5.622110552764e+02
6.124120603015e+02
6.626130653266e+02
7.128140703518e+02
7.630150753769e+02
8.132160804020e+02
8.634170854271e+02
9.136180904523e+02
9.638190954774e+02
1.014020100503e+03
1.064221105528e+03
1.114422110553e+03
1.164623115578e+03
1.214824120603e+03
1.265025125628e+03
1.315226130653e+03
1.365427135678e+03
1.415628140704e+03
1.465829145729e+03
1.516030150754e+03
1.566231155779e+03
1.616432160804e+03
1.666633165829e+03
1.716834170854e+03
1.767035175879e+03
1.817236180905e+03
1.867437185930e+03
1.917638190955e+03
1.967839195980e+03
2.018040201005e+03
2.068241206030e+03
2.118442211055e+03
2.168643216080e+03
2.218844221106e+03
2.269045226131e+03
2.319246231156e+03
2.369447236181e+03
2.419648241206e+03
2.469849246231e+03
2.520050251256e+03
2.570251256281e+03
2.620452261307e+03
2.670653266332e+03
2.720854271357e+03
2.771055276382e+03
2.821256281407e+03
2.871457286432e+03
2.921658291457e+03
2.971859296482e+03
3.022060301508e+03
3.072261306533e+03
3.122462311558e+03
3.172663316583e+03
3.222864321608e+03
3.273065326633e+03
3.323266331658e+03
3.373467336683e+03
3.423668341709e+03
3.473869346734e+03
3.524070351759e+03
3.574271356784e+03
3.624472361809e+03
3.674673366834e+03
3.724874371859e+03
3.775075376884e+03
3.825276381910e+03
3.875477386935e+03
3.925678391960e+03
3.975879396985e+03
4.026080402010e+03
4.076281407035e+03
4.126482412060e+03
4.176683417085e+03
4.226884422111e+03
4.277085427136e+03
4.327286432161e+03
4.377487437186e+03
4.427688442211e+03
4.477889447236e+03
4.528090452261e+03
4.578291457286e+03
4.628492462312e+03
4.678693467337e+03
4.728894472362e+03
4.779095477387e+03
4.829296482412e+03
4.879497487437e+03
4.929698492462e+03
4.979899497487e+03
5.030100502513e+03
5.080301507538e+03
5.130502512563e+03
5.180703517588e+03
5.230904522613e+03
5.281105527638e+03
5.331306532663e+03
5.381507537688e+03
5.431708542714e+03
5.481909547739e+03
5.532110552764e+03
5.582311557789e+03
5.632512562814e+03
5.682713567839e+03
5.732914572864e+03
5.783115577889e+03
5.833316582915e+03
5.883517587940e+03
5.933718592965e+03
5.983919597990e+03
6.034120603015e+03
6.084321608040e+03
6.134522613065e+03
6.184723618090e+03
6.234924623116e+03
6.285125628141e+03
6.335326633166e+03
6.385527638191e+03
6.435728643216e+03
6.485929648241e+03
6.536130653266e+03
6.586331658291e+03
6.636532663317e+03
6.686733668342e+03
6.736934673367e+03
6.787135678392e+03
6.837336683417e+03
6.887537688442e+03
6.937738693467e+03
6.987939698492e+03
7.038140703518e+03
7.088341708543e+03
7.138542713568e+03
7.188743718593e+03
7.238944723618e+03
7.289145728643e+03
7.339346733668e+03
7.389547738693e+03
7.439748743719e+03
7.489949748744e+03
7.540150753769e+03
7.590351758794e+03
7.640552763819e+03
7.690753768844e+03
7.740954773869e+03
7.791155778894e+03
7.841356783920e+03
7.891557788945e+03
7.941758793970e+03
7.991959798995e+03
8.042160804020e+03
8.092361809045e+03
8.142562814070e+03
8.192763819095e+03
8.242964824121e+03
8.293165829146e+03
8.343366834171e+03
8.393567839196e+03
8.443768844221e+03
8.493969849246e+03
8.544170854271e+03
8.594371859296e+03
8.644572864322e+03
8.694773869347e+03
8.744974874372e+03
8.795175879397e+03
8.845376884422e+03
8.895577889447e+03
8.945778894472e+03
8.995979899497e+03
9.046180904523e+03
9.096381909548e+03
9.146582914573e+03
9.196783919598e+03
9.246984924623e+03
9.297185929648e+03
9.347386934673e+03
9.397587939699e+03
9.447788944724e+03
9.497989949749e+03
9.548190954774e+03
9.598391959799e+03
9.648592964824e+03
9.698793969849e+03
9.748994974874e+03
9.799195979900e+03
9.849396984925e+03
9.899597989950e+03
9.949798994975e+03
1.000000000000e+04
</indep>
<dep ac.i(pr1) frequency>
9.999468569312e-02-j8.112543113565e-14
9.999468569312e-02-j4.883832487463e-13
9.999468569312e-02-j8.956410663569e-13
9.999468569312e-02-j1.302898883968e-12
9.999468569312e-02-j1.710156701578e-12
9.999468569312e-02-j2.117414519189e-12
9.999468569312e-02-j2.524672336799e-12
9.999468569312e-02-j2.931930154410e-12
9.999468569312e-02-j3.339187972021e-12
9.999468569312e-02-j3.746445789631e-12
9.999468569312e-02-j4.153703607242e-12
9.999468569312e-02-j4.560961424853e-12
9.999468569312e-02-j4.968219242463e-12
9.999468569312e-02-j5.375477060074e-12
9.999468569312e-02-j5.782734877685e-12
9.999468569312e-02-j6.189992695295e-12
9.999468569312e-02-j6.597250512906e-12
9.999468569312e-02-j7.004508330516e-12
9.999468569312e-02-j7.411766148127e-12
9.999468569312e-02-j7.819023965738e-12
9.999468569312e-02-j8.226281783348e-12
9.999468569312e-02-j8.633539600959e-12
9.999468569312e-02-j9.040797418570e-12
9.999468569312e-02-j9.448055236180e-12
9.999468569312e-02-j9.855313053791e-12
9.999468569312e-02-j1.026257087140e-11
9.999468569312e-02-j1.066982868901e-11
9.999468569312e-02-j1.107708650662e-11
9.999468569312e-02-j1.148434432423e-11
9.999468569312e-02-j1.189160214184e-11
9.999468569312e-02-j1.229885995945e-11
9.999468569312e-02-j1.270611777707e-11
9.999468569312e-02-j1.311337559468e-11
9.999468569312e-02-j1.352063341229e-11
9.999468569312e-02-j1.392789122990e-11
9.999468569312e-02-j1.433514904751e-11
9.999468569312e-02-j1.474240686512e-11
9.999468569312e-02-j1.514966468273e-11
9.999468569312e-02-j1.555692250034e-11
9.999468569312e-02-j1.596418031795e-11
9.999468569312e-02-j1.637143813556e-11
9.999468569312e-02-j1.677869595317e-11
9.999468569312e-02-j1.718595377078e-11
9.999468569312e-02-j1.759321158839e-11
9.999468569312e-02-j1.800046940600e-11
9.999468569312e-02-j1.840772722361e-11
9.999468569312e-02-j1.881498504122e-11
9.999468569312e-02-j1.922224285884e-11
9.999468569312e-02-j1.962950067645e-11
9.999468569312e-02-j2.003675849406e-11
9.999468569312e-02-j2.044401631167e-11
9.999468569312e-02-j2.085127412928e-11
9.999468569312e-02-j2.125853194689e-11
9.999468569312e-02-j2.166578976450e-11
9.999468569312e-02-j2.207304758211e-11
9.999468569312e-02-j2.248030539972e-11
9.999468569312e-02-j2.288756321733e-11
9.999468569312e-02-j2.329482103494e-11
9.999468569312e-02-j2.370207885255e-11
9.999468569312e-02-j2.410933667016e-11
9.999468569312e-02-j2.451659448777e-11
9.999468569312e-02-j2.492385230538e-11
9.999468569312e-02-j2.533111012300e-11
9.999468569312e-02-j2.573836794061e-11
9.999468569312e-02-j2.614562575822e-11
9.999468569312e-02-j2.655288357583e-11
9.999468569312e-02-j2.696014139344e-11
9.999468569312e-02-j2.736739921105e-11
9.999468569312e-02-j2.777465702866e-11
9.999468569312e-02-j2.818191484627e-11
9.999468569312e-02-j2.858917266388e-11
9.999468569312e-02-j2.899643048149e-11
9.999468569312e-02-j2.940368829910e-11
9.999468569312e-02-j2.981094611671e-11
9.999468569312e-02-j3.021820393432e-11
9.999468569312e-02-j3.062546175193e-11
9.999468569312e-02-j3.103271956954e-11
9.999468569312e-02-j3.143997738715e-11
9.999468569312e-02-j3.184723520477e-11
9.999468569312e-02-j3.225449302238e-11
9.999468569312e-02-j3.266175083999e-11
9.999468569312e-02-j3.306900865760e-11
9.999468569312e-02-j3.347626647521e-11
9.999468569312e-02-j3.388352429282e-11
9.999468569312e-02-j3.429078211043e-11
9.999468569312e-02-j3.469803992804e-11
9.999468569312e-02-j3.510529774565e-11
9.999468569312e-02-j3.551255556326e-11
9.999468569312e-02-j3.591981338087e-11
9.999468569312e-02-j3.632707119848e-11
9.999468569312e-02-j3.673432901609e-11
9.999468569312e-02-j3.714158683370e-11
9.999468569312e-02-j3.754884465131e-11
9.999468569312e-02-j3.795610246892e-11
9.999468569312e-02-j3.836336028654e-11
9.999468569312e-02-j3.877061810415e-11
9.999468569312e-02-j3.917787592176e-11
9.999468569312e-02-j3.958513373937e-11
9.999468569312e-02-j3.999239155698e-11
9.999468569312e-02-j4.039964937459e-11
9.999468569312e-02-j4.080690719220e-11
9.999468569312e-02-j4.121416500981e-11
9.999468569312e-02-j4.162142282742e-11
9.999468569312e-02-j4.202868064503e-11
9.999468569312e-02-j4.243593846264e-11
9.999468569312e-02-j4.284319628025e-11
9.999468569312e-02-j4.325045409786e-11
9.999468569312e-02-j4.365771191547e-11
9.999468569312e-02-j4.406496973308e-11
9.999468569312e-02-j4.447222755070e-11
9.999468569312e-02-j4.487948536831e-11
9.999468569312e-02-j4.528674318592e-11
9.999468569312e-02-j4.569400100353e-11
9.999468569312e-02-j4.610125882114e-11
9.999468569312e-02-j4.650851663875e-11
9.999468569312e-02-j4.691577445636e-11
9.999468569312e-02-j4.732303227397e-11
9.999468569312e-02-j4.773029009158e-11
9.999468569312e-02-j4.813754790919e-11
9.999468569312e-02-j4.854480572680e-11
9.999468569312e-02-j4.895206354441e-11
9.999468569312e-02-j4.935932136202e-11
9.999468569312e-02-j4.976657917963e-11
9.999468569312e-02-j5.017383699724e-11
9.999468569312e-02-j5.058109481485e-11
9.999468569312e-02-j5.098835263247e-11
9.999468569312e-02-j5.139561045008e-11
9.999468569312e-02-j5.180286826769e-11
9.999468569312e-02-j5.221012608530e-11
9.999468569312e-02-j5.261738390291e-11
9.999468569312e-02-j5.302464172052e-11
9.999468569312e-02-j5.343189953813e-11
9.999468569312e-02-j5.383915735574e-11
9.999468569312e-02-j5.424641517335e-11
9.999468569312e-02-j5.465367299096e-11
9.999468569312e-02-j5.506093080857e-11
9.999468569312e-02-j5.546818862618e-11
9.999468569312e-02-j5.587544644379e-11
9.999468569312e-02-j5.628270426140e-11
9.999468569312e-02-j5.668996207901e-11
9.999468569312e-02-j5.709721989662e-11
9.999468569312e-02-j5.750447771424e-11
9.999468569312e-02-j5.791173553185e-11
9.999468569312e-02-j5.831899334946e-11
9.999468569312e-02-j5.872625116707e-11
9.999468569312e-02-j5.913350898468e-11
9.999468569312e-02-j5.954076680229e-11
9.999468569312e-02-j5.994802461990e-11
9.999468569312e-02-j6.035528243751e-11
9.999468569312e-02-j6.076254025512e-11
9.999468569312e-02-j6.116979807273e-11
9.999468569312e-02-j6.157705589034e-11
9.999468569312e-02-j6.198431370795e-11
9.999468569312e-02-j6.239157152556e-11
9.999468569312e-02-j6.279882934317e-11
9.999468569312e-02-j6.320608716078e-11
9.999468569312e-02-j6.361334497840e-11
9.999468569312e-02-j6.402060279601e-11
9.999468569312e-02-j6.442786061362e-11
9.999468569312e-02-j6.483511843123e-11
9.999468569312e-02-j6.524237624884e-11
9.999468569312e-02-j6.564963406645e-11
9.999468569312e-02-j6.605689188406e-11
9.999468569312e-02-j6.646414970167e-11
9.999468569312e-02-j6.687140751928e-11
9.999468569312e-02-j6.727866533689e-11
9.999468569312e-02-j6.768592315450e-11
9.999468569312e-02-j6.809318097211e-11
9.999468569312e-02-j6.850043878972e-11
9.999468569312e-02-j6.890769660733e-11
9.999468569312e-02-j6.931495442494e-11
9.999468569312e-02-j6.972221224255e-11
9.999468569312e-02-j7.012947006017e-11
9.999468569312e-02-j7.053672787778e-11
9.999468569312e-02-j7.094398569539e-11
9.999468569312e-02-j7.135124351300e-11
9.999468569312e-02-j7.175850133061e-11
9.999468569312e-02-j7.216575914822e-11
9.999468569312e-02-j7.257301696583e-11
9.999468569312e-02-j7.298027478344e-11
9.999468569312e-02-j7.338753260105e-11
9.999468569312e-02-j7.379479041866e-11
9.999468569312e-02-j7.420204823627e-11
9.999468569312e-02-j7.460930605388e-11
9.999468569312e-02-j7.501656387149e-11
9.999468569312e-02-j7.542382168910e-11
9.999468569312e-02-j7.583107950671e-11
9.999468569312e-02-j7.623833732433e-11
9.999468569312e-02-j7.664559514194e-11
9.999468569312e-02-j7.705285295955e-11
9.999468569312e-02-j7.746011077716e-11
9.999468569312e-02-j7.786736859477e-11
9.999468569312e-02-j7.827462641238e-11
9.999468569312e-02-j7.868188422999e-11
9.999468569312e-02-j7.908914204760e-11
9.999468569312e-02-j7.949639986521e-11
9.999468569312e-02-j7.990365768282e-11
9.999468569312e-02-j8.031091550043e-11
9.999468569312e-02-j8.071817331804e-11
9.999468569312e-02-j8.112543113565e-11
</dep>
<dep ac.i(pr2) frequency>
1.004682461431e-03-j8.307092134743e-14
1.004682461431e-03-j5.000952953478e-13
1.004682461431e-03-j9.171196693482e-13
1.004682461431e-03-j1.334144043349e-12
1.004682461431e-03-j1.751168417349e-12
1.004682461431e-03-j2.168192791349e-12
1.004682461431e-03-j2.585217165350e-12
1.004682461431e-03-j3.002241539350e-12
1.004682461431e-03-j3.419265913351e-12
1.004682461431e-03-j3.836290287351e-12
1.004682461431e-03-j4.253314661351e-12
1.004682461431e-03-j4.670339035352e-12
1.004682461431e-03-j5.087363409352e-12
1.004682461431e-03-j5.504387783353e-12
1.004682461431e-03-j5.921412157353e-12
1.004682461431e-03-j6.338436531353e-12
1.004682461431e-03-j6.755460905354e-12
1.004682461431e-03-j7.172485279354e-12
1.004682461431e-03-j7.589509653355e-12
1.004682461431e-03-j8.006534027355e-12
1.004682461431e-03-j8.423558401355e-12
1.004682461431e-03-j8.840582775356e-12
1.004682461431e-03-j9.257607149356e-12
1.004682461431e-03-j9.674631523357e-12
1.004682461431e-03-j1.009165589736e-11
1.004682461431e-03-j1.050868027136e-11
1.004682461431e-03-j1.092570464536e-11
1.004682461431e-03-j1.134272901936e-11
1.004682461431e-03-j1.175975339336e-11
1.004682461431e-03-j1.217677776736e-11
1.004682461431e-03-j1.259380214136e-11
1.004682461431e-03-j1.301082651536e-11
1.004682461431e-03-j1.342785088936e-11
1.004682461431e-03-j1.384487526336e-11
1.004682461431e-03-j1.426189963736e-11
1.004682461431e-03-j1.467892401136e-11
1.004682461431e-03-j1.509594838536e-11
1.004682461431e-03-j1.551297275936e-11
1.004682461431e-03-j1.592999713336e-11
1.004682461431e-03-j1.634702150736e-11
1.004682461431e-03-j1.676404588136e-11
1.004682461431e-03-j1.718107025536e-11
1.004682461431e-03-j1.759809462936e-11
1.004682461431e-03-j1.801511900336e-11
1.004682461431e-03-j1.843214337737e-11
1.004682461431e-03-j1.884916775137e-11
1.004682461431e-03-j1.926619212537e-11
1.004682461431e-03-j1.968321649937e-11
1.004682461431e-03-j2.010024087337e-11
1.004682461431e-03-j2.051726524737e-11
1.004682461431e-03-j2.093428962137e-11
1.004682461431e-03-j2.135131399537e-11
1.004682461431e-03-j2.176833836937e-11
1.004682461431e-03-j2.218536274337e-11
1.004682461431e-03-j2.260238711737e-11
1.004682461431e-03-j2.301941149137e-11
1.004682461431e-03-j2.343643586537e-11
1.004682461431e-03-j2.385346023937e-11
1.004682461431e-03-j2.427048461337e-11
1.004682461431e-03-j2.468750898737e-11
1.004682461431e-03-j2.510453336137e-11
1.004682461431e-03-j2.552155773537e-11
1.004682461431e-03-j2.593858210937e-11
1.004682461431e-03-j2.635560648337e-11
1.004682461431e-03-j2.677263085737e-11
1.004682461431e-03-j2.718965523137e-11
1.004682461431e-03-j2.760667960537e-11
1.004682461431e-03-j2.802370397937e-11
1.004682461431e-03-j2.844072835337e-11
1.004682461431e-03-j2.885775272738e-11
1.004682461431e-03-j2.927477710138e-11
1.004682461431e-03-j2.969180147538e-11
1.004682461431e-03-j3.010882584938e-11
1.004682461431e-03-j3.052585022338e-11
1.004682461431e-03-j3.094287459738e-11
1.004682461431e-03-j3.135989897138e-11
1.004682461431e-03-j3.177692334538e-11
1.004682461431e-03-j3.219394771938e-11
1.004682461431e-03-j3.261097209338e-11
1.004682461431e-03-j3.302799646738e-11
1.004682461431e-03-j3.344502084138e-11
1.004682461431e-03-j3.386204521538e-11
1.004682461431e-03-j3.427906958938e-11
1.004682461431e-03-j3.469609396338e-11
1.004682461431e-03-j3.511311833738e-11
1.004682461431e-03-j3.553014271138e-11
1.004682461431e-03-j3.594716708538e-11
1.004682461431e-03-j3.636419145938e-11
1.004682461431e-03-j3.678121583338e-11
1.004682461431e-03-j3.719824020738e-11
1.004682461431e-03-j3.761526458138e-11
1.004682461431e-03-j3.803228895538e-11
1.004682461431e-03-j3.844931332938e-11
1.004682461431e-03-j3.886633770338e-11
1.004682461431e-03-j3.928336207739e-11
1.004682461431e-03-j3.970038645139e-11
1.004682461431e-03-j4.011741082539e-11
1.004682461431e-03-j4.053443519939e-11
1.004682461431e-03-j4.095145957339e-11
1.004682461431e-03-j4.136848394739e-11
1.004682461431e-03-j4.178550832139e-11
1.004682461431e-03-j4.220253269539e-11
1.004682461431e-03-j4.261955706939e-11
1.004682461431e-03-j4.303658144339e-11
1.004682461431e-03-j4.345360581739e-11
1.004682461431e-03-j4.387063019139e-11
1.004682461431e-03-j4.428765456539e-11
1.004682461431e-03-j4.470467893939e-11
1.004682461431e-03-j4.512170331339e-11
1.004682461431e-03-j4.553872768739e-11
1.004682461431e-03-j4.595575206139e-11
1.004682461431e-03-j4.637277643539e-11
1.004682461431e-03-j4.678980080939e-11
1.004682461431e-03-j4.720682518339e-11
1.004682461431e-03-j4.762384955739e-11
1.004682461431e-03-j4.804087393139e-11
1.004682461431e-03-j4.845789830539e-11
1.004682461431e-03-j4.887492267939e-11
1.004682461431e-03-j4.929194705340e-11
1.004682461431e-03-j4.970897142740e-11
1.004682461431e-03-j5.012599580140e-11
1.004682461431e-03-j5.054302017540e-11
1.004682461431e-03-j5.096004454940e-11
1.004682461431e-03-j5.137706892340e-11
1.004682461431e-03-j5.179409329740e-11
1.004682461431e-03-j5.221111767140e-11
1.004682461431e-03-j5.262814204540e-11
1.004682461431e-03-j5.304516641940e-11
1.004682461431e-03-j5.346219079340e-11
1.004682461431e-03-j5.387921516740e-11
1.004682461431e-03-j5.429623954140e-11
1.004682461431e-03-j5.471326391540e-11
1.004682461431e-03-j5.513028828940e-11
1.004682461431e-03-j5.554731266340e-11
1.004682461431e-03-j5.596433703740e-11
1.004682461431e-03-j5.638136141140e-11
1.004682461431e-03-j5.679838578540e-11
1.004682461431e-03-j5.721541015940e-11
1.004682461431e-03-j5.763243453340e-11
1.004682461431e-03-j5.804945890740e-11
1.004682461431e-03-j5.846648328140e-11
1.004682461431e-03-j5.888350765540e-11
1.004682461431e-03-j5.930053202941e-11
1.004682461431e-03-j5.971755640341e-11
1.004682461431e-03-j6.013458077741e-11
1.004682461431e-03-j6.055160515141e-11
1.004682461431e-03-j6.096862952541e-11
1.004682461431e-03-j6.138565389941e-11
1.004682461431e-03-j6.180267827341e-11
1.004682461431e-03-j6.221970264741e-11
1.004682461431e-03-j6.263672702141e-11
1.004682461431e-03-j6.305375139541e-11
1.004682461431e-03-j6.347077576941e-11
1.004682461431e-03-j6.388780014341e-11
1.004682461431e-03-j6.430482451741e-11
1.004682461431e-03-j6.472184889141e-11
1.004682461431e-03-j6.513887326541e-11
1.004682461431e-03-j6.555589763941e-11
1.004682461431e-03-j6.597292201341e-11
1.004682461431e-03-j6.638994638741e-11
1.004682461431e-03-j6.680697076141e-11
1.004682461431e-03-j6.722399513541e-11
1.004682461431e-03-j6.764101950941e-11
1.004682461431e-03-j6.805804388341e-11
1.004682461431e-03-j6.847506825741e-11
1.004682461431e-03-j6.889209263141e-11
1.004682461431e-03-j6.930911700541e-11
1.004682461431e-03-j6.972614137942e-11
1.004682461431e-03-j7.014316575342e-11
1.004682461431e-03-j7.056019012742e-11
1.004682461431e-03-j7.097721450142e-11
1.004682461431e-03-j7.139423887542e-11
1.004682461431e-03-j7.181126324942e-11
1.004682461431e-03-j7.222828762342e-11
1.004682461431e-03-j7.264531199742e-11
1.004682461431e-03-j7.306233637142e-11
1.004682461431e-03-j7.347936074542e-11
1.004682461431e-03-j7.389638511942e-11
1.004682461431e-03-j7.431340949342e-11
1.004682461431e-03-j7.473043386742e-11
1.004682461431e-03-j7.514745824142e-11
1.004682461431e-03-j7.556448261542e-11
1.004682461431e-03-j7.598150698942e-11
1.004682461431e-03-j7.639853136342e-11
1.004682461431e-03-j7.681555573742e-11
1.004682461431e-03-j7.723258011142e-11
1.004682461431e-03-j7.764960448542e-11
1.004682461431e-03-j7.806662885942e-11
1.004682461431e-03-j7.848365323342e-11
1.004682461431e-03-j7.890067760742e-11
1.004682461431e-03-j7.931770198143e-11
1.004682461431e-03-j7.973472635543e-11
1.004682461431e-03-j8.015175072943e-11
1.004682461431e-03-j8.056877510343e-11
1.004682461431e-03-j8.098579947743e-11
1.004682461431e-03-j8.140282385143e-11
1.004682461431e-03-j8.181984822543e-11
1.004682461431e-03-j8.223687259943e-11
1.004682461431e-03-j8.265389697343e-11
1.004682461431e-03-j8.307092134743e-11
</dep>
<dep ac.v(vport1) frequency>
5.314306880301e-03+j8.112543113565e-11
5.314306880301e-03+j4.883832487463e-10
5.314306880301e-03+j8.956410663569e-10
5.314306880301e-03+j1.302898883968e-09
5.314306880301e-03+j1.710156701578e-09
5.314306880301e-03+j2.117414519189e-09
5.314306880301e-03+j2.524672336799e-09
5.314306880301e-03+j2.931930154410e-09
5.314306880301e-03+j3.339187972021e-09
5.314306880301e-03+j3.746445789631e-09
5.314306880301e-03+j4.153703607242e-09
